Circuit: * C:\Users\PC\OneDrive - Hanoi University of Science and Technology\Documents\LTspiceXVII\Draft9.asc

Warning: Multiple definitions of model "tip41c" Type: BJT
WARNING: Node N008 is floating.

WARNING: Less than two connections to node N004.  This node is used by Q1.
WARNING: Less than two connections to node N007.  This node is used by Q1.
WARNING: Less than two connections to node N008.  This node is used by Q1.
Direct Newton iteration for .op point succeeded.
Semiconductor Device Operating Points:
                        --- Bipolar Transistors ---
Name:       q2          q1
Model:    tip41c      2n2222
Ib:       0.00e+00    0.00e+00
Ic:       1.04e-08    0.00e+00
Vbe:      3.91e-02   -6.35e-14
Vbc:     -1.50e+01    1.14e-13
Vce:      1.50e+01   -1.77e-13
BetaDC:   0.00e+00    0.00e+00
Gm:       1.18e-08   -2.65e-24
Rpi:      2.82e+06    9.98e+11
Rx:       4.56e+00    1.00e+01
Ro:       3.39e+11    2.59e+12
Cbe:      1.99e-10    2.50e-11
Cbc:      4.35e-11    8.00e-12
Cjs:      0.00e+00    0.00e+00
BetaAC:   3.32e-02   -2.64e-12
Cbx:      1.07e-11    0.00e+00
Ft:       2.23e+02    4.83e-03



Date: Mon Jan 15 17:57:30 2024
Total elapsed time: 0.058 seconds.

tnom = 27
temp = 27
method = trap
totiter = 30
traniter = 0
tranpoints = 0
accept = 0
rejected = 0
matrix size = 16
fillins = 0
solver = Normal
Matrix Compiler1: 948 bytes object code size
Matrix Compiler2: 1.18 KB object code size
